time	V(input)	V(nc_01)
0.000000000000000e+00	0.000000e+00	4.077106e+00
8.928571532911587e-10	1.121997e-07	4.077105e+00
1.785714306582317e-09	2.243995e-07	4.077104e+00
2.678571459873476e-09	3.365992e-07	4.077101e+00
3.571428613164635e-09	4.487990e-07	4.077098e+00
4.464285766455793e-09	5.609987e-07	4.077093e+00
5.357142919746952e-09	6.731984e-07	4.077088e+00
6.250000073038109e-09	7.853982e-07	4.077081e+00
1.250000014607622e-08	1.570796e-06	4.077022e+00
2.500000029215244e-08	3.141593e-06	4.076858e+00
5.000000058430487e-08	6.283185e-06	4.076467e+00
1.000000011686097e-07	1.256637e-05	4.075640e+00
2.000000023372195e-07	2.513273e-05	4.073980e+00
4.000000046744390e-07	5.026543e-05	4.070689e+00
8.000000093488779e-07	1.005305e-04	4.064224e+00
1.600000018697756e-06	2.010585e-04	4.051742e+00
3.200000037395512e-06	4.020968e-04	4.028438e+00
6.400000074791024e-06	8.040310e-04	3.987568e+00
1.280000014958205e-05	1.606762e-03	3.921801e+00
2.256562514958205e-05	2.826189e-03	3.846812e+00
3.233125014958205e-05	4.034978e-03	3.793046e+00
4.209687514958205e-05	5.228581e-03	3.753873e+00
5.186250014958205e-05	6.402505e-03	3.723178e+00
6.162812514958205e-05	7.552331e-03	3.697657e+00
7.139375014958204e-05	8.673732e-03	3.675584e+00
8.115937514958204e-05	9.762487e-03	3.656090e+00
9.092500014958204e-05	1.081450e-02	3.638751e+00
1.104562501495820e-04	1.279260e-02	3.609888e+00
1.299875001495820e-04	1.457830e-02	3.588533e+00
1.495187501495820e-04	1.614472e-02	3.574766e+00
1.690500001495821e-04	1.746831e-02	3.568720e+00
1.885812501495821e-04	1.852916e-02	3.570453e+00
2.081125001495821e-04	1.931132e-02	3.579911e+00
2.276437501495821e-04	1.980301e-02	3.596922e+00
2.471750001495821e-04	1.999685e-02	3.621198e+00
2.667062501495821e-04	1.988992e-02	3.652340e+00
2.862375001495821e-04	1.948382e-02	3.689845e+00
3.057687501495821e-04	1.878467e-02	3.733117e+00
3.253000001495822e-04	1.780298e-02	3.781474e+00
3.448312501495822e-04	1.655352e-02	3.834163e+00
3.643625001495822e-04	1.505508e-02	3.890374e+00
3.838937501495822e-04	1.333019e-02	3.949249e+00
4.034250001495822e-04	1.140481e-02	4.009899e+00
4.229562501495822e-04	9.307888e-03	4.071416e+00
4.424875001495823e-04	7.070966e-03	4.132891e+00
4.620187501495823e-04	4.727690e-03	4.193421e+00
4.815500001495823e-04	2.313306e-03	4.252126e+00
5.010812501495823e-04	-1.358729e-04	4.308160e+00
5.206125001495823e-04	-2.583008e-03	4.360721e+00
5.401437501495823e-04	-4.991292e-03	4.409060e+00
5.596750001495823e-04	-7.324503e-03	4.452493e+00
5.792062501495823e-04	-9.547547e-03	4.490403e+00
5.987375001495824e-04	-1.162699e-02	4.522251e+00
6.182687501495824e-04	-1.353154e-02	4.547582e+00
6.378000001495824e-04	-1.523258e-02	4.566024e+00
6.573312501495824e-04	-1.670450e-02	4.577302e+00
6.768625001495824e-04	-1.792516e-02	4.581231e+00
6.963937501495824e-04	-1.887622e-02	4.577728e+00
7.159250001495825e-04	-1.954336e-02	4.566812e+00
7.354562501495825e-04	-1.991655e-02	4.548603e+00
7.549875001495825e-04	-1.999018e-02	4.523330e+00
7.647531251495825e-04	-1.991414e-02	4.508144e+00
7.842843751495825e-04	-1.953775e-02	4.472929e+00
8.038156251495825e-04	-1.886751e-02	4.431674e+00
8.233468751495826e-04	-1.791348e-02	4.384962e+00
8.428781251495826e-04	-1.669001e-02	4.333471e+00
8.624093751495826e-04	-1.521551e-02	4.277958e+00
8.819406251495826e-04	-1.351216e-02	4.219256e+00
9.014718751495826e-04	-1.160557e-02	4.158256e+00
9.210031251495826e-04	-9.524419e-03	4.095893e+00
9.405343751495827e-04	-7.300014e-03	4.033133e+00
9.600656251495827e-04	-4.965810e-03	3.970951e+00
9.795968751495827e-04	-2.556915e-03	3.910323e+00
9.991281251495827e-04	-1.095625e-04	3.852198e+00
1.018659375149583e-03	2.339438e-03	3.797490e+00
1.038190625149583e-03	4.753252e-03	3.747057e+00
1.057721875149583e-03	7.095572e-03	3.701689e+00
1.077253125149583e-03	9.331168e-03	3.662093e+00
1.096784375149583e-03	1.142641e-02	3.628884e+00
1.116315625149583e-03	1.334980e-02	3.602571e+00
1.135846875149583e-03	1.507239e-02	3.583552e+00
1.155378125149583e-03	1.656827e-02	3.572109e+00
1.174909375149583e-03	1.781496e-02	3.568401e+00
1.194440625149583e-03	1.879369e-02	3.572464e+00
1.213971875149583e-03	1.948974e-02	3.584211e+00
1.233503125149583e-03	1.989266e-02	3.603437e+00
1.253034375149583e-03	1.999637e-02	3.629820e+00
1.262800000149583e-03	1.993535e-02	3.645564e+00
1.272565625149583e-03	1.979931e-02	3.662928e+00
1.292096875149583e-03	1.930445e-02	3.702230e+00
1.311628125149583e-03	1.851924e-02	3.747102e+00
1.331159375149583e-03	1.745548e-02	3.796841e+00
1.350690625149583e-03	1.612918e-02	3.850675e+00
1.370221875149583e-03	1.456027e-02	3.907776e+00
1.389753125149583e-03	1.277237e-02	3.967278e+00
1.409284375149583e-03	1.079236e-02	4.028284e+00
1.428815625149583e-03	8.650017e-03	4.089884e+00
1.448346875149583e-03	6.377573e-03	4.151170e+00
1.467878125149583e-03	4.009205e-03	4.211243e+00
1.487409375149583e-03	1.580535e-03	4.269234e+00
1.506940625149583e-03	-8.719083e-04	4.324308e+00
1.526471875149583e-03	-3.311237e-03	4.375679e+00
1.546003125149583e-03	-5.700761e-03	4.422615e+00
1.565534375149583e-03	-8.004542e-03	4.464452e+00
1.585065625149583e-03	-1.018793e-02	4.500596e+00
1.604596875149583e-03	-1.221807e-02	4.530534e+00
1.624128125149583e-03	-1.406445e-02	4.553832e+00
1.643659375149583e-03	-1.569929e-02	4.570150e+00
1.663190625149583e-03	-1.709799e-02	4.579238e+00
1.682721875149583e-03	-1.823952e-02	4.580941e+00
1.702253125149583e-03	-1.910672e-02	4.575208e+00
1.721784375149583e-03	-1.968653e-02	4.562086e+00
1.741315625149583e-03	-1.997023e-02	4.541730e+00
1.760846875149583e-03	-1.995357e-02	4.514398e+00
1.780378125149583e-03	-1.963679e-02	4.480453e+00
1.799909375149583e-03	-1.902465e-02	4.440361e+00
1.819440625149583e-03	-1.812636e-02	4.394690e+00
1.838971875149583e-03	-1.695543e-02	4.344096e+00
1.858503125149583e-03	-1.552948e-02	4.289323e+00
1.878034375149583e-03	-1.386995e-02	4.231190e+00
1.897565625149584e-03	-1.200181e-02	4.170576e+00
1.917096875149584e-03	-9.953145e-03	4.108408e+00
1.936628125149584e-03	-7.754776e-03	4.045650e+00
1.956159375149584e-03	-5.439769e-03	3.983274e+00
1.975690625149583e-03	-3.042942e-03	3.922258e+00
1.995221875149583e-03	-6.003467e-04	3.863558e+00
2.014753125149582e-03	1.851278e-03	3.808095e+00
2.034284375149582e-03	4.275059e-03	3.756742e+00
2.053815625149581e-03	6.634538e-03	3.710301e+00
2.073346875149581e-03	8.894227e-03	3.669499e+00
2.092878125149581e-03	1.102014e-02	3.634968e+00
2.112409375149580e-03	1.298030e-02	3.607240e+00
2.131940625149580e-03	1.474522e-02	3.586737e+00
2.151471875149579e-03	1.628836e-02	3.573762e+00
2.171003125149579e-03	1.758651e-02	3.568500e+00
2.190534375149579e-03	1.862014e-02	3.571012e+00
2.210065625149578e-03	1.937371e-02	3.581235e+00
2.229596875149578e-03	1.983588e-02	3.598987e+00
2.249128125149577e-03	1.999970e-02	3.623970e+00
2.268659375149577e-03	1.986270e-02	3.655772e+00
2.288190625149576e-03	1.942695e-02	3.693882e+00
2.307721875149576e-03	1.869901e-02	3.737695e+00
2.327253125149576e-03	1.768981e-02	3.786520e+00
2.346784375149575e-03	1.641454e-02	3.839599e+00
2.366315625149575e-03	1.489238e-02	3.896116e+00
2.385846875149574e-03	1.314622e-02	3.955209e+00
2.405378125149574e-03	1.120234e-02	4.015986e+00
2.424909375149574e-03	9.089955e-03	4.077541e+00
2.444440625149573e-03	6.840854e-03	4.138961e+00
2.463971875149573e-03	4.488859e-03	4.199348e+00
2.483503125149572e-03	2.069348e-03	4.257824e+00
2.503034375149572e-03	-3.812877e-04	4.313546e+00
2.522565625149571e-03	-2.826189e-03	4.365717e+00
2.542096875149571e-03	-5.228581e-03	4.413596e+00
2.561628125149571e-03	-7.552331e-03	4.456502e+00
2.581159375149570e-03	-9.762487e-03	4.493830e+00
2.600690625149570e-03	-1.182581e-02	4.525045e+00
2.620221875149569e-03	-1.371125e-02	4.549702e+00
2.639753125149569e-03	-1.539047e-02	4.567439e+00
2.659284375149569e-03	-1.683820e-02	4.577988e+00
2.678815625149568e-03	-1.803267e-02	4.581176e+00
2.698346875149568e-03	-1.895591e-02	4.576930e+00
2.717878125149567e-03	-1.959404e-02	4.565277e+00
2.737409375149567e-03	-1.993745e-02	4.546350e+00
2.756940625149566e-03	-1.998099e-02	4.520387e+00
2.766706250149566e-03	-1.988992e-02	4.504869e+00
2.786237500149566e-03	-1.948382e-02	4.469028e+00
2.805768750149565e-03	-1.878467e-02	4.427198e+00
2.825300000149565e-03	-1.780298e-02	4.379977e+00
2.844831250149565e-03	-1.655352e-02	4.328048e+00
2.864362500149564e-03	-1.505508e-02	4.272178e+00
2.883893750149564e-03	-1.333019e-02	4.213205e+00
2.903425000149563e-03	-1.140481e-02	4.152026e+00
2.922956250149563e-03	-9.307888e-03	4.089579e+00
2.942487500149563e-03	-7.070966e-03	4.026832e+00
2.962018750149562e-03	-4.727690e-03	3.964763e+00
2.981550000149562e-03	-2.313306e-03	3.904342e+00
3.001081250149561e-03	1.358729e-04	3.846519e+00
3.020612500149561e-03	2.583008e-03	3.792201e+00
3.040143750149560e-03	4.991292e-03	3.742240e+00
3.059675000149560e-03	7.324503e-03	3.697418e+00
3.079206250149560e-03	9.547547e-03	3.658435e+00
3.098737500149559e-03	1.162699e-02	3.625895e+00
3.118268750149559e-03	1.353154e-02	3.600295e+00
3.137800000149558e-03	1.523258e-02	3.582024e+00
3.157331250149558e-03	1.670450e-02	3.571349e+00
3.176862500149558e-03	1.792516e-02	3.568418e+00
3.196393750149557e-03	1.887622e-02	3.573255e+00
3.215925000149557e-03	1.954336e-02	3.585762e+00
3.235456250149556e-03	1.991655e-02	3.605720e+00
3.254987500149556e-03	1.999018e-02	3.632796e+00
3.264753125149556e-03	1.991414e-02	3.648870e+00
3.274518750149555e-03	1.976314e-02	3.666550e+00
3.294050000149555e-03	1.923884e-02	3.706438e+00
3.313581250149555e-03	1.842517e-02	3.751830e+00
3.333112500149554e-03	1.733437e-02	3.802014e+00
3.352643750149554e-03	1.598284e-02	3.856213e+00
3.372175000149553e-03	1.439092e-02	3.913594e+00
3.391706250149553e-03	1.258254e-02	3.973288e+00
3.411237500149553e-03	1.058491e-02	4.034394e+00
3.430768750149552e-03	8.428077e-03	4.096004e+00
3.450300000149552e-03	6.144475e-03	4.157208e+00
3.469831250149551e-03	3.768454e-03	4.217112e+00
3.489362500149551e-03	1.335753e-03	4.274848e+00
3.508893750149550e-03	-1.117040e-03	4.329587e+00
3.528425000149550e-03	-3.553031e-03	4.380546e+00
3.547956250149550e-03	-5.935582e-03	4.427001e+00
3.567487500149549e-03	-8.228855e-03	4.468294e+00
3.587018750149549e-03	-1.039836e-02	4.503839e+00
3.606550000149548e-03	-1.241146e-02	4.533131e+00
3.626081250149548e-03	-1.423789e-02	4.555746e+00
3.645612500149548e-03	-1.585016e-02	4.571350e+00
3.665143750149547e-03	-1.722403e-02	4.579704e+00
3.684675000149547e-03	-1.833883e-02	4.580665e+00
3.704206250149546e-03	-1.917781e-02	4.574189e+00
3.723737500149546e-03	-1.972833e-02	4.560335e+00
3.743268750149545e-03	-1.998211e-02	4.539268e+00
3.762800000149545e-03	-1.993535e-02	4.511256e+00
3.782331250149545e-03	-1.958875e-02	4.476674e+00
3.801862500149544e-03	-1.894750e-02	4.435997e+00
3.821393750149544e-03	-1.802128e-02	4.389802e+00
3.840925000149543e-03	-1.682399e-02	4.338756e+00
3.860456250149543e-03	-1.537366e-02	4.283609e+00
3.879987500149543e-03	-1.369209e-02	4.225187e+00
3.899518750149542e-03	-1.180458e-02	4.164374e+00
3.919050000149542e-03	-9.739515e-03	4.102105e+00
3.938581250149542e-03	-7.527962e-03	4.039340e+00
3.958112500149541e-03	-5.203181e-03	3.977057e+00
3.977643750149541e-03	-2.800140e-03	3.916230e+00
3.997175000149540e-03	-3.549813e-04	3.857813e+00
4.016706250149540e-03	2.095516e-03	3.802723e+00
4.036237500149540e-03	4.514495e-03	3.751826e+00
4.055768750149539e-03	6.865572e-03	3.705918e+00
4.075300000149539e-03	9.113384e-03	3.665716e+00
4.094831250149538e-03	1.122412e-02	3.631843e+00
4.114362500149538e-03	1.316604e-02	3.604821e+00
4.133893750149538e-03	1.490993e-02	3.585058e+00
4.153425000149537e-03	1.642956e-02	3.572849e+00
4.172956250149537e-03	1.770207e-02	3.568363e+00
4.192487500149536e-03	1.870833e-02	3.571651e+00
4.212018750149536e-03	1.943319e-02	3.582637e+00
4.231550000149535e-03	1.986576e-02	3.601128e+00
4.251081250149535e-03	1.999954e-02	3.626813e+00
4.270612500149535e-03	1.983250e-02	3.659271e+00
4.290143750149534e-03	1.936716e-02	3.697980e+00
4.309675000149534e-03	1.861053e-02	3.742326e+00
4.329206250149533e-03	1.757397e-02	3.791612e+00
4.348737500149533e-03	1.627308e-02	3.845073e+00
4.368268750149533e-03	1.472743e-02	3.901887e+00
4.387800000149532e-03	1.296027e-02	3.961189e+00
4.407331250149532e-03	1.099817e-02	4.022085e+00
4.426862500149531e-03	8.870654e-03	4.083667e+00
4.446393750149531e-03	6.609711e-03	4.145025e+00
4.465925000149530e-03	4.249352e-03	4.205259e+00
4.485456250149530e-03	1.825079e-03	4.263497e+00
4.504987500149530e-03	-6.266452e-04	4.318899e+00
4.524518750149529e-03	-3.068944e-03	4.370674e+00
4.544050000149529e-03	-5.465083e-03	4.418085e+00
4.563581250149528e-03	-7.779022e-03	4.460460e+00
4.583112500149528e-03	-9.975958e-03	4.497198e+00
4.602643750149528e-03	-1.202285e-02	4.527777e+00
4.622175000149527e-03	-1.388890e-02	4.551756e+00
4.641706250149527e-03	-1.554605e-02	4.568786e+00
4.661237500149526e-03	-1.696937e-02	4.578604e+00
4.680768750149526e-03	-1.813746e-02	4.581050e+00
4.700300000149525e-03	-1.903275e-02	4.576060e+00
4.719831250149525e-03	-1.964176e-02	4.563672e+00
4.739362500149525e-03	-1.995534e-02	4.544029e+00
4.758893750149524e-03	-1.996878e-02	4.517380e+00
4.768659375149524e-03	-1.986270e-02	4.501534e+00
4.788190625149524e-03	-1.942695e-02	4.465069e+00
4.807721875149523e-03	-1.869901e-02	4.422672e+00
4.827253125149523e-03	-1.768981e-02	4.374947e+00
4.846784375149522e-03	-1.641454e-02	4.322588e+00
4.866315625149522e-03	-1.489238e-02	4.266369e+00
4.885846875149522e-03	-1.314622e-02	4.207134e+00
4.905378125149521e-03	-1.120234e-02	4.145785e+00
4.924909375149521e-03	-9.089955e-03	4.083265e+00
4.944440625149520e-03	-6.840854e-03	4.020542e+00
4.963971875149520e-03	-4.488859e-03	3.958594e+00
4.983503125149519e-03	-2.069348e-03	3.898391e+00
5.003034375149519e-03	3.812877e-04	3.840878e+00
5.022565625149519e-03	2.826189e-03	3.786958e+00
5.042096875149518e-03	5.228581e-03	3.737477e+00
5.061628125149518e-03	7.552331e-03	3.693210e+00
5.081159375149517e-03	9.762487e-03	3.654846e+00
5.100690625149517e-03	1.182581e-02	3.622978e+00
5.120221875149517e-03	1.371125e-02	3.598096e+00
5.139753125149516e-03	1.539047e-02	3.580574e+00
5.159284375149516e-03	1.683820e-02	3.570669e+00
5.178815625149515e-03	1.803267e-02	3.568516e+00
5.198346875149515e-03	1.895591e-02	3.574127e+00
5.217878125149514e-03	1.959404e-02	3.587390e+00
5.237409375149514e-03	1.993745e-02	3.608077e+00
5.256940625149514e-03	1.998099e-02	3.635843e+00
5.266706250149513e-03	1.988992e-02	3.652243e+00
5.286237500149513e-03	1.948382e-02	3.689749e+00
5.305768750149513e-03	1.878467e-02	3.733021e+00
5.325300000149512e-03	1.780298e-02	3.781378e+00
5.344831250149512e-03	1.655352e-02	3.834068e+00
5.364362500149511e-03	1.505508e-02	3.890279e+00
5.383893750149511e-03	1.333019e-02	3.949154e+00
5.403425000149511e-03	1.140481e-02	4.009805e+00
5.422956250149510e-03	9.307888e-03	4.071322e+00
5.442487500149510e-03	7.070966e-03	4.132798e+00
5.462018750149509e-03	4.727690e-03	4.193328e+00
5.481550000149509e-03	2.313306e-03	4.252033e+00
5.501081250149508e-03	-1.358729e-04	4.308067e+00
5.520612500149508e-03	-2.583008e-03	4.360628e+00
5.540143750149508e-03	-4.991292e-03	4.408968e+00
5.559675000149507e-03	-7.324503e-03	4.452401e+00
5.579206250149507e-03	-9.547547e-03	4.490311e+00
5.598737500149506e-03	-1.162699e-02	4.522160e+00
5.618268750149506e-03	-1.353154e-02	4.547490e+00
5.637800000149506e-03	-1.523258e-02	4.565933e+00
5.657331250149505e-03	-1.670450e-02	4.577209e+00
5.676862500149505e-03	-1.792516e-02	4.581139e+00
5.696393750149504e-03	-1.887622e-02	4.577636e+00
5.715925000149504e-03	-1.954336e-02	4.566719e+00
5.735456250149503e-03	-1.991655e-02	4.548511e+00
5.754987500149503e-03	-1.999018e-02	4.523238e+00
5.764753125149503e-03	-1.991414e-02	4.508052e+00
5.784284375149502e-03	-1.953775e-02	4.472836e+00
5.803815625149502e-03	-1.886751e-02	4.431581e+00
5.823346875149502e-03	-1.791348e-02	4.384869e+00
5.842878125149501e-03	-1.669001e-02	4.333377e+00
5.862409375149501e-03	-1.521551e-02	4.277865e+00
5.881940625149500e-03	-1.351216e-02	4.219163e+00
5.901471875149500e-03	-1.160557e-02	4.158163e+00
5.921003125149499e-03	-9.524419e-03	4.095799e+00
5.940534375149499e-03	-7.300014e-03	4.033039e+00
5.960065625149499e-03	-4.965810e-03	3.970857e+00
5.979596875149498e-03	-2.556915e-03	3.910229e+00
5.999128125149498e-03	-1.095625e-04	3.852104e+00
6.018659375149497e-03	2.339438e-03	3.797396e+00
6.038190625149497e-03	4.753252e-03	3.746963e+00
6.057721875149497e-03	7.095572e-03	3.701594e+00
6.077253125149496e-03	9.331168e-03	3.661999e+00
6.096784375149496e-03	1.142641e-02	3.628790e+00
6.116315625149495e-03	1.334980e-02	3.602477e+00
6.135846875149495e-03	1.507239e-02	3.583458e+00
6.155378125149494e-03	1.656827e-02	3.572016e+00
6.174909375149494e-03	1.781496e-02	3.568307e+00
6.194440625149494e-03	1.879369e-02	3.572370e+00
6.213971875149493e-03	1.948974e-02	3.584118e+00
6.233503125149493e-03	1.989266e-02	3.603344e+00
6.253034375149492e-03	1.999637e-02	3.629727e+00
6.262800000149492e-03	1.993535e-02	3.645472e+00
6.272565625149492e-03	1.979931e-02	3.662836e+00
6.292096875149492e-03	1.930445e-02	3.702138e+00
6.311628125149491e-03	1.851924e-02	3.747010e+00
6.331159375149491e-03	1.745548e-02	3.796749e+00
6.350690625149490e-03	1.612918e-02	3.850583e+00
6.370221875149490e-03	1.456027e-02	3.907685e+00
6.389753125149489e-03	1.277237e-02	3.967187e+00
6.409284375149489e-03	1.079236e-02	4.028193e+00
6.428815625149489e-03	8.650017e-03	4.089794e+00
6.448346875149488e-03	6.377573e-03	4.151080e+00
6.467878125149488e-03	4.009205e-03	4.211154e+00
6.487409375149487e-03	1.580535e-03	4.269145e+00
6.506940625149487e-03	-8.719083e-04	4.324219e+00
6.526471875149487e-03	-3.311237e-03	4.375589e+00
6.546003125149486e-03	-5.700761e-03	4.422526e+00
6.565534375149486e-03	-8.004542e-03	4.464363e+00
6.585065625149485e-03	-1.018793e-02	4.500508e+00
6.604596875149485e-03	-1.221807e-02	4.530445e+00
6.624128125149484e-03	-1.406445e-02	4.553744e+00
6.643659375149484e-03	-1.569929e-02	4.570062e+00
6.663190625149484e-03	-1.709799e-02	4.579149e+00
6.682721875149483e-03	-1.823952e-02	4.580853e+00
6.702253125149483e-03	-1.910672e-02	4.575119e+00
6.721784375149482e-03	-1.968653e-02	4.561998e+00
6.741315625149482e-03	-1.997023e-02	4.541641e+00
6.760846875149482e-03	-1.995357e-02	4.514309e+00
6.780378125149481e-03	-1.963679e-02	4.480364e+00
6.799909375149481e-03	-1.902465e-02	4.440272e+00
6.819440625149480e-03	-1.812636e-02	4.394600e+00
6.838971875149480e-03	-1.695543e-02	4.344007e+00
6.858503125149479e-03	-1.552948e-02	4.289233e+00
6.878034375149479e-03	-1.386995e-02	4.231100e+00
6.897565625149479e-03	-1.200181e-02	4.170485e+00
6.917096875149478e-03	-9.953145e-03	4.108318e+00
6.936628125149478e-03	-7.754776e-03	4.045559e+00
6.956159375149477e-03	-5.439769e-03	3.983184e+00
6.975690625149477e-03	-3.042942e-03	3.922168e+00
6.995221875149477e-03	-6.003467e-04	3.863468e+00
7.014753125149476e-03	1.851278e-03	3.808005e+00
7.034284375149476e-03	4.275059e-03	3.756652e+00
7.053815625149475e-03	6.634538e-03	3.710211e+00
7.073346875149475e-03	8.894227e-03	3.669409e+00
7.092878125149474e-03	1.102014e-02	3.634878e+00
7.112409375149474e-03	1.298030e-02	3.607151e+00
7.131940625149474e-03	1.474522e-02	3.586647e+00
7.151471875149473e-03	1.628836e-02	3.573672e+00
7.171003125149473e-03	1.758651e-02	3.568410e+00
7.190534375149472e-03	1.862014e-02	3.570922e+00
7.210065625149472e-03	1.937371e-02	3.581145e+00
7.229596875149472e-03	1.983588e-02	3.598898e+00
7.249128125149471e-03	1.999970e-02	3.623881e+00
7.268659375149471e-03	1.986270e-02	3.655684e+00
7.288190625149470e-03	1.942695e-02	3.693794e+00
7.307721875149470e-03	1.869901e-02	3.737607e+00
7.327253125149469e-03	1.768981e-02	3.786432e+00
7.346784375149469e-03	1.641454e-02	3.839512e+00
7.366315625149469e-03	1.489238e-02	3.896029e+00
7.385846875149468e-03	1.314622e-02	3.955122e+00
7.405378125149468e-03	1.120234e-02	4.015900e+00
7.424909375149467e-03	9.089955e-03	4.077455e+00
7.444440625149467e-03	6.840854e-03	4.138875e+00
7.463971875149467e-03	4.488859e-03	4.199262e+00
7.483503125149466e-03	2.069348e-03	4.257738e+00
7.503034375149466e-03	-3.812877e-04	4.313460e+00
