time	Ib(Q1)	Ic(Q1)
0.000000000000000e+00	-5.025772e-12	5.051959e-12
4.145924507507257e-02	-1.948034e-11	-2.919732e-10
8.291849015014514e-02	-1.697146e-11	-3.894506e-10
1.243777352252177e-01	2.500884e-12	-2.873802e-10
1.658369803002903e-01	3.893668e-11	1.423799e-11
2.072962253753629e-01	9.233593e-11	5.154040e-10
2.487554704504354e-01	1.626986e-10	1.216118e-09
2.902147155255079e-01	2.500248e-10	2.116380e-09
3.195115905255079e-01	5.785523e-10	6.566218e-09
3.390428405255079e-01	1.036974e-09	1.396404e-08
3.488084655255079e-01	1.394015e-09	2.036129e-08
3.585740905255079e-01	1.877427e-09	2.968580e-08
3.683397155255079e-01	2.531844e-09	4.327373e-08
3.781053405255079e-01	3.417555e-09	6.306797e-08
3.878709655255079e-01	4.615901e-09	9.189056e-08
3.976365905255079e-01	6.236468e-09	1.338344e-07
4.074022155255079e-01	8.426575e-09	1.948239e-07
4.171678405255079e-01	1.138371e-08	2.834115e-07
4.269334655255079e-01	1.537159e-08	4.118992e-07
4.366990905255079e-01	2.074058e-08	5.978974e-07
4.464647155255079e-01	2.795290e-08	8.664540e-07
4.562303405255079e-01	3.761283e-08	1.252893e-06
4.659959655255079e-01	5.050069e-08	1.806474e-06
4.757615905255079e-01	6.760811e-08	2.594886e-06
4.855272155255079e-01	9.016919e-08	3.709399e-06
4.952928405255079e-01	1.196788e-07	5.270138e-06
5.050584655255079e-01	1.578868e-07	7.430496e-06
5.148240905255079e-01	2.067548e-07	1.037919e-05
5.245897155255079e-01	2.683663e-07	1.433827e-05
5.343553405255079e-01	3.447912e-07	1.955561e-05
5.441209655255079e-01	4.379193e-07	2.629164e-05
5.538865905255079e-01	5.492915e-07	3.480181e-05
5.636522155255079e-01	6.799676e-07	4.531776e-05
5.734178405255079e-01	8.304559e-07	5.803116e-05
5.831834655255079e-01	1.000718e-06	7.308318e-05
5.929490905255079e-01	1.190239e-06	9.056095e-05
6.027147155255079e-01	1.398133e-06	1.105003e-04
6.124803405255079e-01	1.623264e-06	1.328929e-04
6.222459655255079e-01	1.864360e-06	1.576955e-04
6.320115905255079e-01	2.120101e-06	1.848397e-04
6.417772155255079e-01	2.389185e-06	2.142399e-04
6.515428405255079e-01	2.670374e-06	2.458009e-04
6.613084655255079e-01	2.962514e-06	2.794229e-04
6.710740905255079e-01	3.264552e-06	3.150053e-04
6.808397155255079e-01	3.575535e-06	3.524495e-04
7.003709655255079e-01	4.221009e-06	4.325479e-04
7.199022155255079e-01	4.893149e-06	5.190162e-04
7.491990905255079e-01	5.941601e-06	6.593310e-04
7.784959655255079e-01	7.028310e-06	8.108480e-04
8.105830190969365e-01	8.262184e-06	9.902547e-04
8.426700726683651e-01	9.513653e-06	1.177478e-03
8.747571262397937e-01	1.078272e-05	1.372518e-03
9.068441798112222e-01	1.206938e-05	1.575375e-03
9.389312333826508e-01	1.337363e-05	1.786048e-03
9.710182869540794e-01	1.469548e-05	2.004538e-03
1.003105340525508e+00	1.603493e-05	2.230844e-03
1.077045072668365e+00	1.915131e-05	2.774819e-03
1.150984804811222e+00	2.228860e-05	3.336140e-03
1.224924536954080e+00	2.544679e-05	3.914809e-03
1.298864269096937e+00	2.862589e-05	4.510825e-03
1.372804001239794e+00	3.182589e-05	5.124188e-03
1.446743733382651e+00	3.504680e-05	5.754898e-03
1.520683465525508e+00	3.828861e-05	6.402955e-03
1.703440161954079e+00	4.633344e-05	8.055659e-03
1.886196858382651e+00	5.440176e-05	9.738142e-03
2.068953554811222e+00	6.249358e-05	1.145040e-02
2.251710251239794e+00	7.060889e-05	1.319244e-02
2.434466947668366e+00	7.874769e-05	1.496426e-02
2.617223644096937e+00	8.690999e-05	1.676586e-02
2.799980340525508e+00	9.509578e-05	1.859724e-02
3.114687390093293e+00	1.092459e-04	2.177637e-02
3.429394439661077e+00	1.233838e-04	2.495089e-02
3.744101489228862e+00	1.375094e-04	2.812079e-02
4.058808538796646e+00	1.516228e-04	3.128607e-02
4.373515588364431e+00	1.657240e-04	3.444674e-02
4.688222637932216e+00	1.798129e-04	3.760279e-02
5.002929687500000e+00	1.938896e-04	4.075423e-02
5.386858258928571e+00	1.765658e-04	3.686084e-02
5.770786830357143e+00	1.592692e-04	3.297991e-02
6.154715401785714e+00	1.419997e-04	2.911144e-02
6.538643973214286e+00	1.247573e-04	2.525542e-02
6.922572544642858e+00	1.075421e-04	2.141186e-02
7.306501116071429e+00	9.035399e-05	1.758075e-02
7.690429687500000e+00	7.319300e-05	1.376210e-02
7.829938616071429e+00	6.697142e-05	1.240125e-02
7.969447544642858e+00	6.077213e-05	1.106708e-02
8.108956473214286e+00	5.459512e-05	9.759588e-03
8.248465401785715e+00	4.844039e-05	8.478776e-03
8.387974330357142e+00	4.230795e-05	7.224645e-03
8.527483258928571e+00	3.619779e-05	5.997193e-03
8.666992187500000e+00	3.010992e-05	4.796421e-03
8.725585937500000e+00	2.756566e-05	4.308952e-03
8.784179687500000e+00	2.504160e-05	3.835624e-03
8.842773437500000e+00	2.253775e-05	3.376438e-03
8.901367187500000e+00	2.005410e-05	2.931393e-03
8.959960937500000e+00	1.759065e-05	2.500490e-03
9.018554687500000e+00	1.514741e-05	2.083728e-03
9.077148437500000e+00	1.272438e-05	1.681108e-03
9.102260044642858e+00	1.169888e-05	1.516227e-03
9.127371651785714e+00	1.068853e-05	1.357146e-03
9.152483258928571e+00	9.693331e-06	1.203865e-03
9.177594866071429e+00	8.713277e-06	1.056385e-03
9.202706473214286e+00	7.748372e-06	9.147035e-04
9.227818080357142e+00	6.798615e-06	7.788225e-04
9.252929687500000e+00	5.864007e-06	6.487414e-04
9.282226562500000e+00	4.818739e-06	5.093046e-04
9.301757812500000e+00	4.149263e-06	4.234990e-04
9.321289062500000e+00	3.507019e-06	3.441358e-04
9.331054687500000e+00	3.197908e-06	3.070892e-04
9.340820312500000e+00	2.897942e-06	2.719257e-04
9.350585937500000e+00	2.608094e-06	2.387443e-04
9.360351562500000e+00	2.329441e-06	2.076459e-04
9.370117187500000e+00	2.063156e-06	1.787295e-04
9.379882812500000e+00	1.810492e-06	1.520889e-04
9.389648437500000e+00	1.572762e-06	1.278064e-04
9.399414062500000e+00	1.351279e-06	1.059459e-04
9.409179687500000e+00	1.147297e-06	8.654371e-05
9.418945312500000e+00	9.619060e-07	6.959931e-05
9.428710937500000e+00	7.959208e-07	5.506619e-05
9.438476562500000e+00	6.497615e-07	4.284550e-05
9.448242187500000e+00	5.233514e-07	3.278450e-05
9.458007812500000e+00	4.160598e-07	2.468171e-05
9.467773437500000e+00	3.267140e-07	1.829878e-05
9.477539062500000e+00	2.536839e-07	1.337756e-05
9.487304687500000e+00	1.950259e-07	9.658972e-06
9.497070312500000e+00	1.486537e-07	6.899842e-06
9.506835937500000e+00	1.125002e-07	4.884952e-06
9.516601562500000e+00	8.464404e-08	3.433276e-06
9.526367187500000e+00	6.338865e-08	2.398952e-06
9.536132812500000e+00	4.729645e-08	1.668568e-06
9.545898437500000e+00	3.518830e-08	1.156446e-06
9.555664062500000e+00	2.612147e-08	7.993347e-07
9.565429687500000e+00	1.935696e-08	5.513638e-07
9.575195312500000e+00	1.432421e-08	3.797305e-07
9.584960937500000e+00	1.058773e-08	2.612218e-07
9.594726562500000e+00	7.818013e-09	1.795433e-07
9.604492187500000e+00	5.767318e-09	1.233252e-07
9.614257812500000e+00	4.250311e-09	8.467034e-08
9.624023437500000e+00	3.128829e-09	5.811173e-08
9.633789062500000e+00	2.300145e-09	3.987426e-08
9.643554687500000e+00	1.688034e-09	2.735599e-08
9.653320312500000e+00	1.236020e-09	1.876604e-08
9.672851562500000e+00	6.559669e-10	8.830815e-09
9.702148437500000e+00	2.410195e-10	2.853678e-09
9.731445312500000e+00	7.445435e-11	9.265415e-10
9.995117187500000e+00	-3.425626e-11	1.017290e-11
1.000000000000000e+01	-3.421798e-11	1.016964e-11
